
**** 09/18/19 23:28:25 ****** PSpice 16.5.0 (April 2011) ****** ID# 0 ********

 ** Profile: "SCHEMATIC1-PRACTICA 05"  [ C:\PRACTICAS\practica 05-pspicefiles\schematic1\practica 05.sim ] 


 ****     CIRCUIT DESCRIPTION


******************************************************************************




** Creating circuit file "PRACTICA 05.cir" 
** WARNING: THIS AUTOMATICALLY GENERATED FILE MAY BE OVERWRITTEN BY SUBSEQUENT SIMULATIONS

*Libraries: 
* Profile Libraries :
* Local Libraries :
* From [PSPICE NETLIST] section of C:\Cadence\SPB_16.5\tools\PSpice\PSpice.ini file:
.lib "nom.lib" 

*Analysis directives: 
.TRAN  0 100m 0 50u 
.PROBE V(alias(*)) I(alias(*)) W(alias(*)) D(alias(*)) NOISE(alias(*)) 
.INC "..\SCHEMATIC1.net" 



**** INCLUDING SCHEMATIC1.net ****
* source PRACTICA 05
D_D1         N00366 N00281 Dbreak 
D_D2         N00380 N00281 Dbreak 
D_D3         N00394 N00366 Dbreak 
D_D4         N00394 N00380 Dbreak 
C_C1         N00394 N00281  1mF  TC=0,0 
R_R1         N00394 0 10m
R_R2         N00394 N00281 10
L_L1         N03129 N00366  1mH  
L_L2         N03109 N01036  1mH  
D_D5         N01036 N00992 Dbreak 
D_D6         N01048 N00992 Dbreak 
C_C2         N01060 N00992  1mF  TC=0,0 
R_R3         N01060 0 10m
R_R4         N01060 N00992 10
D_D8         N01060 N01048 Dbreak 
D_D7         N01060 N01036 Dbreak 
D_D11         N01720 N01696 Dbreak 
C_C3         N01720 N01652  1mF  TC=0,0 
D_D12         N01720 N00380 Dbreak 
D_D9         N01696 N01652 Dbreak 
L_L3         N03074 N01696  1mH  
D_D10         N00380 N01652 Dbreak 
R_R5         N01720 0 10m
R_R6         N01720 N01652 10
V_V1         N03129 0  AC 0
+SIN 0 380 60 0 0 0
V_V2         N03109 0  AC 0
+SIN 0 110 60 0 0 0
V_V3         N03074 0  AC 0
+SIN 0 220 60 0 0 0
R_R7         0 N00380  1m TC=0,0 

**** RESUMING "PRACTICA 05.cir" ****
.END

**** 09/18/19 23:28:25 ****** PSpice 16.5.0 (April 2011) ****** ID# 0 ********

 ** Profile: "SCHEMATIC1-PRACTICA 05"  [ C:\PRACTICAS\practica 05-pspicefiles\schematic1\practica 05.sim ] 


 ****     Diode MODEL PARAMETERS


******************************************************************************




               Dbreak          
          IS   10.000000E-15 
          RS     .1          
         CJO  100.000000E-15 


**** 09/18/19 23:28:25 ****** PSpice 16.5.0 (April 2011) ****** ID# 0 ********

 ** Profile: "SCHEMATIC1-PRACTICA 05"  [ C:\PRACTICAS\practica 05-pspicefiles\schematic1\practica 05.sim ] 


 ****     INITIAL TRANSIENT SOLUTION       TEMPERATURE =   27.000 DEG C


******************************************************************************



 NODE   VOLTAGE     NODE   VOLTAGE     NODE   VOLTAGE     NODE   VOLTAGE


(N00281)-3.764E-24 (N00366)    0.0000 (N00380) 376.1E-30 (N00394)-3.760E-27     

(N00992)    0.0000 (N01036)    0.0000 (N01048) 129.3E-24 (N01060)    0.0000     

(N01652)-3.764E-24 (N01696)    0.0000 (N01720)-3.760E-27 (N03074)    0.0000     

(N03109)    0.0000 (N03129)    0.0000 




    VOLTAGE SOURCE CURRENTS
    NAME         CURRENT

    V_V1         1.880E-25
    V_V2         0.000E+00
    V_V3         1.880E-25

    TOTAL POWER DISSIPATION   0.00E+00  WATTS



          JOB CONCLUDED

**** 09/18/19 23:28:25 ****** PSpice 16.5.0 (April 2011) ****** ID# 0 ********

 ** Profile: "SCHEMATIC1-PRACTICA 05"  [ C:\PRACTICAS\practica 05-pspicefiles\schematic1\practica 05.sim ] 


 ****     JOB STATISTICS SUMMARY


******************************************************************************



  Total job time (using Solver 1)   =        4.47
